!freq-unit  param-type  data-format  keyword  impedance-ohms
# GHz           Y          RI           R         1
!-----------------------------------------------------------------------------
2.3500000000000e+000	9.3896518202735e-003	-1.6150878428143e-002	
2.3550000000000e+000	9.6821552851578e-003	-1.5470488856075e-002	
2.3600000000000e+000	9.9899817846049e-003	-1.4776499321604e-002	
2.3650000000000e+000	1.0313791145851e-002	-1.4068002134931e-002	
2.3700000000000e+000	1.0655040629824e-002	-1.3345016099423e-002	
2.3750000000000e+000	1.1013915706097e-002	-1.2605575408550e-002	
2.3800000000000e+000	1.1393999270748e-002	-1.1851409117359e-002	
2.3850000000000e+000	1.1796002432923e-002	-1.1078861680401e-002	
2.3900000000000e+000	1.2218600409958e-002	-1.0286662161019e-002	
2.3950000000000e+000	1.2666368402882e-002	-9.4781344816478e-003	
2.4000000000000e+000	1.3140146580311e-002	-8.6511265114845e-003	
2.4050000000000e+000	1.3642156303626e-002	-7.8043886813341e-003	
2.4100000000000e+000	1.4174088166445e-002	-6.9376274022646e-003	
2.4150000000000e+000	1.4738631050222e-002	-6.0495101993272e-003	
2.4200000000000e+000	1.5338012299227e-002	-5.1399922008510e-003	
2.4250000000000e+000	1.5975444725092e-002	-4.2083866565977e-003	
2.4300000000000e+000	1.6653036014298e-002	-3.2546555324845e-003	
2.4350000000000e+000	1.7374604959706e-002	-2.2803404909162e-003	
2.4400000000000e+000	1.8145219923373e-002	-1.2788529817306e-003	
2.4450000000000e+000	1.8966533892183e-002	-2.5373770666685e-004	
2.4500000000000e+000	1.9844175910404e-002	7.9466265359837e-004	
2.4550000000000e+000	2.0782575025620e-002	1.8678914174482e-003	
2.4600000000000e+000	2.1786271396221e-002	2.9635383885541e-003	
2.4650000000000e+000	2.2861671842101e-002	4.0835622153476e-003	
2.4700000000000e+000	2.4014772927881e-002	5.2269492254173e-003	
2.4750000000000e+000	2.5253672067071e-002	6.3920336114024e-003	
2.4800000000000e+000	2.6584844455448e-002	7.5773995652512e-003	
2.4850000000000e+000	2.8016030242553e-002	8.7791834224310e-003	
2.4900000000000e+000	2.9557097777175e-002	9.9974330460574e-003	
2.4950000000000e+000	3.1217653870362e-002	1.1227389474927e-002	
2.5000000000000e+000	3.3008705329292e-002	1.2462100591508e-002	
2.5050000000000e+000	3.4942255539587e-002	1.3697956149369e-002	
2.5100000000000e+000	3.7029661734806e-002	1.4926107455024e-002	
2.5150000000000e+000	3.9285566609514e-002	1.6137398123529e-002	
2.5200000000000e+000	4.1723676108725e-002	1.7318545285622e-002	
2.5250000000000e+000	4.4357843185597e-002	1.8455072058246e-002	
2.5300000000000e+000	4.7205387450370e-002	1.9529604130459e-002	
2.5350000000000e+000	5.0280462710070e-002	2.0521515918253e-002	
2.5400000000000e+000	5.3599181740666e-002	2.1402857071547e-002	
2.5450000000000e+000	5.7175694930390e-002	2.2141540499557e-002	
2.5500000000000e+000	6.1021280880541e-002	2.2700807329543e-002	
